
T40A4 000:347 SEGGER J-Link V4.96d Log File (0001ms, 0265ms total)
T40A4 000:347 DLL Compiled: Jan 29 2015 11:45:37 (0001ms, 0265ms total)
T40A4 000:347 Logging started @ 2020-10-20 19:02 (0001ms, 0265ms total)
T40A4 000:348 JLINK_SetWarnOutHandler(...) (0000ms, 0265ms total)
T40A4 000:348 JLINK_OpenEx(...)
Firmware: J-Link ARM-OB STM32 compiled Aug 22 2012 19:52:04
Hardware: V7.00
S/N: 20090928
Feature(s): RDI,FlashDL,FlashBP,JFlash,GDB  returns O.K. (0264ms, 0529ms total)
T40A4 000:612 JLINK_SetErrorOutHandler(...) (0000ms, 0529ms total)
T40A4 000:612 JLINK_ExecCommand("ProjectFile = "C:\Users\86177\Desktop\·äÃùÆ÷ÊµÑé\USER\JLinkSettings.ini"", ...)  returns 0x00 (0001ms, 0530ms total)
T40A4 000:635 JLINK_ExecCommand("Device = STM32F407ZG", ...)Device "STM32F407ZG" selected.  returns 0x00 (0012ms, 0542ms total)
T40A4 000:647 JLINK_ExecCommand("DisableConnectionTimeout", ...)  returns 0x01 (0000ms, 0542ms total)
T40A4 000:647 JLINK_GetHardwareVersion()  returns 0x11170 (0000ms, 0542ms total)
T40A4 000:647 JLINK_GetDLLVersion()  returns 49604 (0000ms, 0542ms total)
T40A4 000:647 JLINK_GetFirmwareString(...) (0000ms, 0542ms total)
T40A4 000:682 JLINK_GetDLLVersion()  returns 49604 (0000ms, 0542ms total)
T40A4 000:682 JLINK_GetCompileDateTime() (0000ms, 0542ms total)
T40A4 000:688 JLINK_GetFirmwareString(...) (0000ms, 0542ms total)
T40A4 000:692 JLINK_GetHardwareVersion()  returns 0x11170 (0000ms, 0542ms total)
T40A4 000:707 JLINK_TIF_Select(JLINKARM_TIF_SWD)  returns 0x00 (0000ms, 0542ms total)
T40A4 000:707 JLINK_SetSpeed(10000) (0001ms, 0543ms total)
T40A4 000:708 JLINK_GetId() >0x108 TIF>Found SWD-DP with ID 0x2BA01477 >0x0D TIF> >0x28 TIF> >0x0D TIF> >0x28 TIF> >0x0D TIF> >0x21 TIF> >0x0D TIF> >0x28 TIF> >0x0D TIF> >0x28 TIF> >0x0D TIF> >0x28 TIF> >0x0D TIF> >0x21 TIF> >0x0D TIF> >0x21 TIF> >0x0D TIF> >0x28 TIF> >0x0D TIF> >0x21 TIF> >0x0D TIF> >0x21 TIF> >0x0D TIF> >0x28 TIF> >0x0D TIF> >0x28 TIF> >0x0D TIF> >0x28 TIF> >0x0D TIF> >0x21 TIF> >0x0D TIF> >0x21 TIF> >0x0D TIF> >0x28 TIF> >0x0D TIF> >0x28 TIF> >0x108 TIF>Found SWD-DP with ID 0x2BA01477
 >0x0D TIF> >0x21 TIF> >0x0D TIF> >0x28 TIF> >0x0D TIF> >0x28 TIF> >0x0D TIF> >0x21 TIF> >0x0D TIF> >0x28 TIF> >0x0D TIF> >0x21 TIF> >0x0D TIF> >0x21 TIF> >0x0D TIF> >0x21 TIF> >0x0D TIF> >0x21 TIF> >0x0D TIF> >0x28 TIF> >0x0D TIF> >0x28 TIF> >0x0D TIF> >0x21 TIF> >0x0D TIF> >0x28 TIF> >0x0D TIF> >0x28 TIF> >0x0D TIF> >0x28 TIF> >0x0D TIF> >0x21 TIF> >0x0D TIF> >0x21 TIF> >0x0D TIF> >0x28 TIF> >0x0D TIF> >0x21 TIF> >0x0D TIF> >0x21 TIF>Found Cortex-M4 r0p1, Little endian.
 -- CPU_WriteMem(4 bytes @ 0xE0002000) -- CPU_ReadMem(4 bytes @ 0xE000EDF0) -- CPU_WriteMem(4 bytes @ 0xE000EDF0) -- CPU_ReadMem(4 bytes @ 0xE0002000)FPUnit: 6 code (BP) slots and 2 literal slots -- CPU_ReadMem(4 bytes @ 0xE000EDFC) -- CPU_WriteMem(4 bytes @ 0xE000EDFC) -- CPU_ReadMem(4 bytes @ 0xE0001000) -- CPU_WriteMem(4 bytes @ 0xE0001000) -- CPU_ReadMem(4 bytes @ 0xE000ED88) -- CPU_WriteMem(4 bytes @ 0xE000ED88) -- CPU_ReadMem(4 bytes @ 0xE000ED88) -- CPU_WriteMem(4 bytes @ 0xE000ED88)
 -- CPU_ReadMem(4 bytes @ 0xE00FF010)TPIU fitted. -- CPU_ReadMem(4 bytes @ 0xE00FF014)ETM fitted. -- CPU_ReadMem(4 bytes @ 0xE00FF018) >0x0D TIF> >0x21 TIF>  returns 0x2BA01477 (0049ms, 0592ms total)
T40A4 000:757 JLINK_GetDLLVersion()  returns 49604 (0000ms, 0592ms total)
T40A4 000:757 JLINK_CORE_GetFound()  returns 0xE0000FF (0000ms, 0592ms total)
T40A4 000:757 JLINK_GetDebugInfo(0x100) -- Value=0xE00FF003  returns 0x00 (0000ms, 0592ms total)
T40A4 000:761 JLINK_ReadMem (0xE00FF000, 0x0020 Bytes, ...) -- CPU is running -- CPU_ReadMem(32 bytes @ 0xE00FF000) - Data: 03 F0 F0 FF 03 20 F0 FF 03 30 F0 FF 03 10 F0 FF ...  returns 0x00 (0001ms, 0593ms total)
T40A4 000:762 JLINK_ReadMem (0xE000EFF0, 0x0010 Bytes, ...) -- CPU is running -- CPU_ReadMem(16 bytes @ 0xE000EFF0) - Data: 0D 00 00 00 E0 00 00 00 05 00 00 00 B1 00 00 00  returns 0x00 (0001ms, 0594ms total)
T40A4 000:763 JLINK_ReadMem (0xE000EFD0, 0x0020 Bytes, ...) -- CPU is running -- CPU_ReadMem(32 bytes @ 0xE000EFD0) - Data: 04 00 00 00 00 00 00 00 00 00 00 00 00 00 00 00 ...  returns 0x00 (0000ms, 0594ms total)
T40A4 000:763 JLINK_ReadMem (0xE0001FF0, 0x0010 Bytes, ...) -- CPU is running -- CPU_ReadMem(16 bytes @ 0xE0001FF0) - Data: 0D 00 00 00 E0 00 00 00 05 00 00 00 B1 00 00 00  returns 0x00 (0001ms, 0595ms total)
T40A4 000:764 JLINK_ReadMem (0xE0001FD0, 0x0020 Bytes, ...) -- CPU is running -- CPU_ReadMem(32 bytes @ 0xE0001FD0) - Data: 04 00 00 00 00 00 00 00 00 00 00 00 00 00 00 00 ...  returns 0x00 (0001ms, 0596ms total)
T40A4 000:765 JLINK_ReadMem (0xE0002FF0, 0x0010 Bytes, ...) -- CPU is running -- CPU_ReadMem(16 bytes @ 0xE0002FF0) - Data: 0D 00 00 00 E0 00 00 00 05 00 00 00 B1 00 00 00  returns 0x00 (0000ms, 0596ms total)
T40A4 000:765 JLINK_ReadMem (0xE0002FD0, 0x0020 Bytes, ...) -- CPU is running -- CPU_ReadMem(32 bytes @ 0xE0002FD0) - Data: 04 00 00 00 00 00 00 00 00 00 00 00 00 00 00 00 ...  returns 0x00 (0002ms, 0598ms total)
T40A4 000:767 JLINK_ReadMem (0xE0000FF0, 0x0010 Bytes, ...) -- CPU is running -- CPU_ReadMem(16 bytes @ 0xE0000FF0) - Data: 0D 00 00 00 E0 00 00 00 05 00 00 00 B1 00 00 00  returns 0x00 (0000ms, 0598ms total)
T40A4 000:767 JLINK_ReadMem (0xE0000FD0, 0x0020 Bytes, ...) -- CPU is running -- CPU_ReadMem(32 bytes @ 0xE0000FD0) - Data: 04 00 00 00 00 00 00 00 00 00 00 00 00 00 00 00 ...  returns 0x00 (0001ms, 0599ms total)
T40A4 000:768 JLINK_ReadMem (0xE0040FF0, 0x0010 Bytes, ...) -- CPU is running -- CPU_ReadMem(16 bytes @ 0xE0040FF0) - Data: 0D 00 00 00 90 00 00 00 05 00 00 00 B1 00 00 00  returns 0x00 (0001ms, 0600ms total)
T40A4 000:769 JLINK_ReadMem (0xE0040FD0, 0x0020 Bytes, ...) -- CPU is running -- CPU_ReadMem(32 bytes @ 0xE0040FD0) - Data: 04 00 00 00 00 00 00 00 00 00 00 00 00 00 00 00 ...  returns 0x00 (0000ms, 0600ms total)
T40A4 000:769 JLINK_ReadMem (0xE0041FF0, 0x0010 Bytes, ...) -- CPU is running -- CPU_ReadMem(16 bytes @ 0xE0041FF0) - Data: 0D 00 00 00 90 00 00 00 05 00 00 00 B1 00 00 00  returns 0x00 (0001ms, 0601ms total)
T40A4 000:770 JLINK_ReadMem (0xE0041FD0, 0x0020 Bytes, ...) -- CPU is running -- CPU_ReadMem(32 bytes @ 0xE0041FD0) - Data: 04 00 00 00 00 00 00 00 00 00 00 00 00 00 00 00 ...  returns 0x00 (0001ms, 0602ms total)
T40A4 000:771 JLINK_ReadMemU32(0xE000EF40, 0x0001 Items, ...) -- CPU is running -- CPU_ReadMem(4 bytes @ 0xE000EF40) - Data: 21 00 11 10  returns 0x01 (0000ms, 0602ms total)
T40A4 000:771 JLINK_ReadMemU32(0xE000EF44, 0x0001 Items, ...) -- CPU is running -- CPU_ReadMem(4 bytes @ 0xE000EF44) - Data: 11 00 00 11  returns 0x01 (0001ms, 0603ms total)
T40A4 000:772 JLINK_ReadMemU32(0xE000ED00, 0x0001 Items, ...) -- CPU is running -- CPU_ReadMem(4 bytes @ 0xE000ED00) - Data: 41 C2 0F 41  returns 0x01 (0000ms, 0603ms total)
T40A4 000:772 JLINK_SetResetType(JLINKARM_RESET_TYPE_NORMAL)  returns JLINKARM_RESET_TYPE_NORMAL (0000ms, 0603ms total)
T40A4 000:772 JLINK_Reset() -- CPU is running -- CPU_WriteMem(4 bytes @ 0xE000EDF0) -- CPU is running -- CPU_WriteMem(4 bytes @ 0xE000EDFC) >0x35 TIF> -- CPU is running -- CPU_WriteMem(4 bytes @ 0xE000ED0C) -- CPU is running -- CPU_ReadMem(4 bytes @ 0xE000EDF0) -- CPU is running -- CPU_ReadMem(4 bytes @ 0xE000EDF0) -- CPU is running -- CPU_WriteMem(4 bytes @ 0xE000EDF0) -- CPU is running -- CPU_WriteMem(4 bytes @ 0xE000EDFC) -- CPU is running -- CPU_ReadMem(4 bytes @ 0xE000EDF0)
 -- CPU_WriteMem(4 bytes @ 0xE0002000) -- CPU_ReadMem(4 bytes @ 0xE000EDFC) -- CPU_ReadMem(4 bytes @ 0xE0001000) (0019ms, 0622ms total)
T40A4 000:791 JLINK_Halt()  returns 0x00 (0000ms, 0622ms total)
T40A4 000:791 JLINK_IsHalted()  returns TRUE (0000ms, 0622ms total)
T40A4 000:791 JLINK_ReadMemU32(0xE000EDF0, 0x0001 Items, ...) -- CPU_ReadMem(4 bytes @ 0xE000EDF0) - Data: 03 00 03 00  returns 0x01 (0000ms, 0622ms total)
T40A4 000:791 JLINK_WriteU32(0xE000EDF0, 0xA05F0003) -- CPU_WriteMem(4 bytes @ 0xE000EDF0)  returns 0x00 (0001ms, 0623ms total)
T40A4 000:792 JLINK_WriteU32(0xE000EDFC, 0x01000000) -- CPU_WriteMem(4 bytes @ 0xE000EDFC)  returns 0x00 (0000ms, 0623ms total)
T40A4 000:805 JLINK_GetHWStatus(...)  returns 0x00 (0000ms, 0623ms total)
T40A4 000:813 JLINK_GetNumBPUnits(Type = 0xFFFFFF00)  returns 0x06 (0000ms, 0623ms total)
T40A4 000:813 JLINK_GetNumBPUnits(Type = 0xF0)  returns 0x2000 (0000ms, 0623ms total)
T40A4 000:813 JLINK_GetNumWPUnits()  returns 0x04 (0000ms, 0623ms total)
T40A4 000:820 JLINK_GetSpeed()  returns 0xFA0 (0000ms, 0623ms total)
T40A4 000:827 JLINK_ReadMemU32(0xE000E004, 0x0001 Items, ...) -- CPU_ReadMem(4 bytes @ 0xE000E004) - Data: 02 00 00 00  returns 0x01 (0001ms, 0624ms total)
T40A4 000:828 JLINK_ReadMemU32(0xE000E004, 0x0001 Items, ...) -- CPU_ReadMem(4 bytes @ 0xE000E004) - Data: 02 00 00 00  returns 0x01 (0000ms, 0624ms total)
T40A4 000:828 JLINK_WriteMem(0xE0001000, 0x001C Bytes, ...) - Data: 01 00 00 00 00 00 00 00 00 00 00 00 00 00 00 00 ... -- CPU_WriteMem(28 bytes @ 0xE0001000)  returns 0x1C (0001ms, 0625ms total)
T40A4 000:829 JLINK_ReadMem (0xE0001000, 0x001C Bytes, ...) -- CPU_ReadMem(28 bytes @ 0xE0001000) - Data: 01 00 00 40 00 00 00 00 00 00 00 00 00 00 00 00 ...  returns 0x00 (0001ms, 0626ms total)
T40A4 000:830 JLINK_Halt()  returns 0x00 (0000ms, 0626ms total)
T40A4 000:830 JLINK_IsHalted()  returns TRUE (0000ms, 0626ms total)
T40A4 000:834 JLINK_WriteMem(0x20000000, 0x0180 Bytes, ...) - Data: 00 BE 0A E0 0D 78 2D 06 68 40 08 24 40 00 00 D3 ... -- CPU_WriteMem(384 bytes @ 0x20000000)  returns 0x180 (0005ms, 0631ms total)
T40A4 000:839 JLINK_WriteReg(R0, 0x08000000)  returns 0x00 (0000ms, 0631ms total)
T40A4 000:839 JLINK_WriteReg(R1, 0x007A1200)  returns 0x00 (0000ms, 0631ms total)
T40A4 000:839 JLINK_WriteReg(R2, 0x00000001)  returns 0x00 (0000ms, 0631ms total)
T40A4 000:839 JLINK_WriteReg(R3, 0x00000000)  returns 0x00 (0000ms, 0631ms total)
T40A4 000:839 JLINK_WriteReg(R4, 0x00000000)  returns 0x00 (0000ms, 0631ms total)
T40A4 000:839 JLINK_WriteReg(R5, 0x00000000)  returns 0x00 (0000ms, 0631ms total)
T40A4 000:839 JLINK_WriteReg(R6, 0x00000000)  returns 0x00 (0000ms, 0631ms total)
T40A4 000:839 JLINK_WriteReg(R7, 0x00000000)  returns 0x00 (0000ms, 0631ms total)
T40A4 000:839 JLINK_WriteReg(R8, 0x00000000)  returns 0x00 (0000ms, 0631ms total)
T40A4 000:839 JLINK_WriteReg(R9, 0x2000017C)  returns 0x00 (0000ms, 0631ms total)
T40A4 000:840 JLINK_WriteReg(R10, 0x00000000)  returns 0x00 (0000ms, 0632ms total)
T40A4 000:840 JLINK_WriteReg(R11, 0x00000000)  returns 0x00 (0000ms, 0632ms total)
T40A4 000:840 JLINK_WriteReg(R12, 0x00000000)  returns 0x00 (0000ms, 0632ms total)
T40A4 000:840 JLINK_WriteReg(R13 (SP), 0x20001000)  returns 0x00 (0000ms, 0632ms total)
T40A4 000:840 JLINK_WriteReg(R14, 0x20000001)  returns 0x00 (0000ms, 0632ms total)
T40A4 000:840 JLINK_WriteReg(R15 (PC), 0x20000054)  returns 0x00 (0000ms, 0632ms total)
T40A4 000:840 JLINK_WriteReg(XPSR, 0x01000000)  returns 0x00 (0000ms, 0632ms total)
T40A4 000:840 JLINK_WriteReg(MSP, 0x20001000)  returns 0x00 (0000ms, 0632ms total)
T40A4 000:840 JLINK_WriteReg(PSP, 0x20001000)  returns 0x00 (0000ms, 0632ms total)
T40A4 000:840 JLINK_WriteReg(CFBP, 0x00000000)  returns 0x00 (0000ms, 0632ms total)
T40A4 000:840 JLINK_SetBPEx(Addr = 0x20000000, Type = 0xFFFFFFF2) -- CPU_ReadMem(2 bytes @ 0x20000000)  returns 0x00000001 (0000ms, 0632ms total)
T40A4 000:840 JLINK_Go() -- CPU_WriteMem(2 bytes @ 0x20000000) -- CPU_WriteMem(4 bytes @ 0xE0002008) -- CPU_WriteMem(4 bytes @ 0xE000200C) -- CPU_WriteMem(4 bytes @ 0xE0002010) -- CPU_WriteMem(4 bytes @ 0xE0002014) -- CPU_WriteMem(4 bytes @ 0xE0002018) -- CPU_WriteMem(4 bytes @ 0xE000201C) -- CPU_WriteMem(4 bytes @ 0xE0001004) (0005ms, 0637ms total)
T40A4 000:845 JLINK_IsHalted() -- CPU_ReadMem(2 bytes @ 0x20000000)  returns TRUE (0004ms, 0641ms total)
T40A4 000:849 JLINK_ReadReg(R15 (PC))  returns 0x20000000 (0000ms, 0637ms total)
T40A4 000:849 JLINK_ClrBPEx(BPHandle = 0x00000001)  returns 0x00 (0000ms, 0637ms total)
T40A4 000:849 JLINK_ReadReg(R0)  returns 0x00000000 (0000ms, 0637ms total)
T40A4 000:850 JLINK_WriteReg(R0, 0x08000000)  returns 0x00 (0000ms, 0637ms total)
T40A4 000:850 JLINK_WriteReg(R1, 0x00004000)  returns 0x00 (0000ms, 0637ms total)
T40A4 000:850 JLINK_WriteReg(R2, 0x000000FF)  returns 0x00 (0000ms, 0637ms total)
T40A4 000:850 JLINK_WriteReg(R3, 0x00000000)  returns 0x00 (0000ms, 0637ms total)
T40A4 000:850 JLINK_WriteReg(R4, 0x00000000)  returns 0x00 (0000ms, 0637ms total)
T40A4 000:850 JLINK_WriteReg(R5, 0x00000000)  returns 0x00 (0000ms, 0637ms total)
T40A4 000:850 JLINK_WriteReg(R6, 0x00000000)  returns 0x00 (0000ms, 0637ms total)
T40A4 000:850 JLINK_WriteReg(R7, 0x00000000)  returns 0x00 (0000ms, 0637ms total)
T40A4 000:850 JLINK_WriteReg(R8, 0x00000000)  returns 0x00 (0000ms, 0637ms total)
T40A4 000:850 JLINK_WriteReg(R9, 0x2000017C)  returns 0x00 (0000ms, 0637ms total)
T40A4 000:850 JLINK_WriteReg(R10, 0x00000000)  returns 0x00 (0000ms, 0637ms total)
T40A4 000:850 JLINK_WriteReg(R11, 0x00000000)  returns 0x00 (0000ms, 0637ms total)
T40A4 000:850 JLINK_WriteReg(R12, 0x00000000)  returns 0x00 (0000ms, 0637ms total)
T40A4 000:850 JLINK_WriteReg(R13 (SP), 0x20001000)  returns 0x00 (0000ms, 0637ms total)
T40A4 000:850 JLINK_WriteReg(R14, 0x20000001)  returns 0x00 (0000ms, 0637ms total)
T40A4 000:850 JLINK_WriteReg(R15 (PC), 0x20000020)  returns 0x00 (0000ms, 0637ms total)
T40A4 000:850 JLINK_WriteReg(XPSR, 0x01000000)  returns 0x00 (0000ms, 0637ms total)
T40A4 000:850 JLINK_WriteReg(MSP, 0x20001000)  returns 0x00 (0000ms, 0637ms total)
T40A4 000:850 JLINK_WriteReg(PSP, 0x20001000)  returns 0x00 (0000ms, 0637ms total)
T40A4 000:850 JLINK_WriteReg(CFBP, 0x00000000)  returns 0x00 (0000ms, 0637ms total)
T40A4 000:850 JLINK_SetBPEx(Addr = 0x20000000, Type = 0xFFFFFFF2)  returns 0x00000002 (0000ms, 0637ms total)
T40A4 000:850 JLINK_Go() (0002ms, 0639ms total)
T40A4 000:852 JLINK_IsHalted() -- CPU_ReadMem(2 bytes @ 0x20000000)  returns TRUE (0004ms, 0643ms total)
T40A4 000:856 JLINK_ReadReg(R15 (PC))  returns 0x20000000 (0000ms, 0639ms total)
T40A4 000:856 JLINK_ClrBPEx(BPHandle = 0x00000002)  returns 0x00 (0000ms, 0639ms total)
T40A4 000:856 JLINK_ReadReg(R0)  returns 0x00000001 (0000ms, 0639ms total)
T40A4 000:856 JLINK_WriteReg(R0, 0x08000000)  returns 0x00 (0000ms, 0639ms total)
T40A4 000:856 JLINK_WriteReg(R1, 0x00004000)  returns 0x00 (0000ms, 0639ms total)
T40A4 000:856 JLINK_WriteReg(R2, 0x000000FF)  returns 0x00 (0000ms, 0639ms total)
T40A4 000:856 JLINK_WriteReg(R3, 0x00000000)  returns 0x00 (0000ms, 0639ms total)
T40A4 000:856 JLINK_WriteReg(R4, 0x00000000)  returns 0x00 (0000ms, 0639ms total)
T40A4 000:856 JLINK_WriteReg(R5, 0x00000000)  returns 0x00 (0000ms, 0639ms total)
T40A4 000:856 JLINK_WriteReg(R6, 0x00000000)  returns 0x00 (0000ms, 0639ms total)
T40A4 000:856 JLINK_WriteReg(R7, 0x00000000)  returns 0x00 (0000ms, 0639ms total)
T40A4 000:856 JLINK_WriteReg(R8, 0x00000000)  returns 0x00 (0000ms, 0639ms total)
T40A4 000:856 JLINK_WriteReg(R9, 0x2000017C)  returns 0x00 (0000ms, 0639ms total)
T40A4 000:856 JLINK_WriteReg(R10, 0x00000000)  returns 0x00 (0000ms, 0639ms total)
T40A4 000:856 JLINK_WriteReg(R11, 0x00000000)  returns 0x00 (0000ms, 0639ms total)
T40A4 000:856 JLINK_WriteReg(R12, 0x00000000)  returns 0x00 (0000ms, 0639ms total)
T40A4 000:856 JLINK_WriteReg(R13 (SP), 0x20001000)  returns 0x00 (0000ms, 0639ms total)
T40A4 000:856 JLINK_WriteReg(R14, 0x20000001)  returns 0x00 (0000ms, 0639ms total)
T40A4 000:856 JLINK_WriteReg(R15 (PC), 0x200000BC)  returns 0x00 (0000ms, 0639ms total)
T40A4 000:856 JLINK_WriteReg(XPSR, 0x01000000)  returns 0x00 (0000ms, 0639ms total)
T40A4 000:856 JLINK_WriteReg(MSP, 0x20001000)  returns 0x00 (0000ms, 0639ms total)
T40A4 000:856 JLINK_WriteReg(PSP, 0x20001000)  returns 0x00 (0000ms, 0639ms total)
T40A4 000:856 JLINK_WriteReg(CFBP, 0x00000000)  returns 0x00 (0000ms, 0639ms total)
T40A4 000:856 JLINK_SetBPEx(Addr = 0x20000000, Type = 0xFFFFFFF2)  returns 0x00000003 (0000ms, 0639ms total)
T40A4 000:856 JLINK_Go() (0002ms, 0641ms total)
T40A4 000:858 JLINK_IsHalted()  returns FALSE (0000ms, 0641ms total)
T40A4 000:926 JLINK_IsHalted()  returns FALSE (0000ms, 0641ms total)
T40A4 000:928 JLINK_IsHalted()  returns FALSE (0000ms, 0641ms total)
T40A4 000:930 JLINK_IsHalted()  returns FALSE (0000ms, 0641ms total)
T40A4 000:933 JLINK_IsHalted()  returns FALSE (0000ms, 0641ms total)
T40A4 000:935 JLINK_IsHalted()  returns FALSE (0000ms, 0641ms total)
T40A4 000:938 JLINK_IsHalted()  returns FALSE (0000ms, 0641ms total)
T40A4 000:940 JLINK_IsHalted()  returns FALSE (0000ms, 0641ms total)
T40A4 000:942 JLINK_IsHalted()  returns FALSE (0000ms, 0641ms total)
T40A4 000:945 JLINK_IsHalted()  returns FALSE (0000ms, 0641ms total)
T40A4 000:955 JLINK_IsHalted()  returns FALSE (0000ms, 0641ms total)
T40A4 000:958 JLINK_IsHalted()  returns FALSE (0000ms, 0641ms total)
T40A4 000:960 JLINK_IsHalted()  returns FALSE (0000ms, 0641ms total)
T40A4 000:965 JLINK_IsHalted()  returns FALSE (0000ms, 0641ms total)
T40A4 000:967 JLINK_IsHalted()  returns FALSE (0000ms, 0641ms total)
T40A4 000:969 JLINK_IsHalted()  returns FALSE (0000ms, 0641ms total)
T40A4 000:971 JLINK_IsHalted()  returns FALSE (0000ms, 0641ms total)
T40A4 000:975 JLINK_IsHalted()  returns FALSE (0000ms, 0641ms total)
T40A4 000:984 JLINK_IsHalted()  returns FALSE (0000ms, 0641ms total)
T40A4 000:987 JLINK_IsHalted()  returns FALSE (0000ms, 0641ms total)
T40A4 000:990 JLINK_IsHalted()  returns FALSE (0000ms, 0641ms total)
T40A4 000:992 JLINK_IsHalted()  returns FALSE (0000ms, 0641ms total)
T40A4 000:996 JLINK_IsHalted()  returns FALSE (0000ms, 0641ms total)
T40A4 000:999 JLINK_IsHalted()  returns FALSE (0000ms, 0641ms total)
T40A4 001:007 JLINK_IsHalted()  returns FALSE (0000ms, 0641ms total)
T40A4 001:010 JLINK_IsHalted()  returns FALSE (0000ms, 0641ms total)
T40A4 001:020 JLINK_IsHalted()  returns FALSE (0000ms, 0641ms total)
T40A4 001:023 JLINK_IsHalted()  returns FALSE (0000ms, 0641ms total)
T40A4 001:026 JLINK_IsHalted()  returns FALSE (0000ms, 0641ms total)
T40A4 001:031 JLINK_IsHalted()  returns FALSE (0000ms, 0641ms total)
T40A4 001:034 JLINK_IsHalted()  returns FALSE (0000ms, 0641ms total)
T40A4 001:036 JLINK_IsHalted()  returns FALSE (0000ms, 0641ms total)
T40A4 001:039 JLINK_IsHalted()  returns FALSE (0000ms, 0641ms total)
T40A4 001:042 JLINK_IsHalted()  returns FALSE (0000ms, 0641ms total)
T40A4 001:044 JLINK_IsHalted()  returns FALSE (0000ms, 0641ms total)
T40A4 001:046 JLINK_IsHalted()  returns FALSE (0000ms, 0641ms total)
T40A4 001:048 JLINK_IsHalted()  returns FALSE (0000ms, 0641ms total)
T40A4 001:050 JLINK_IsHalted()  returns FALSE (0000ms, 0641ms total)
T40A4 001:052 JLINK_IsHalted()  returns FALSE (0000ms, 0641ms total)
T40A4 001:054 JLINK_IsHalted()  returns FALSE (0000ms, 0641ms total)
T40A4 001:056 JLINK_IsHalted()  returns FALSE (0000ms, 0641ms total)
T40A4 001:059 JLINK_IsHalted()  returns FALSE (0000ms, 0641ms total)
T40A4 001:061 JLINK_IsHalted()  returns FALSE (0000ms, 0641ms total)
T40A4 001:063 JLINK_IsHalted()  returns FALSE (0000ms, 0641ms total)
T40A4 001:065 JLINK_IsHalted()  returns FALSE (0000ms, 0641ms total)
T40A4 001:067 JLINK_IsHalted()  returns FALSE (0000ms, 0641ms total)
T40A4 001:069 JLINK_IsHalted()  returns FALSE (0001ms, 0642ms total)
T40A4 001:075 JLINK_IsHalted()  returns FALSE (0000ms, 0641ms total)
T40A4 001:077 JLINK_IsHalted()  returns FALSE (0000ms, 0641ms total)
T40A4 001:079 JLINK_IsHalted()  returns FALSE (0000ms, 0641ms total)
T40A4 001:081 JLINK_IsHalted()  returns FALSE (0000ms, 0641ms total)
T40A4 001:083 JLINK_IsHalted()  returns FALSE (0000ms, 0641ms total)
T40A4 001:085 JLINK_IsHalted()  returns FALSE (0000ms, 0641ms total)
T40A4 001:087 JLINK_IsHalted()  returns FALSE (0000ms, 0641ms total)
T40A4 001:090 JLINK_IsHalted()  returns FALSE (0000ms, 0641ms total)
T40A4 001:092 JLINK_IsHalted()  returns FALSE (0000ms, 0641ms total)
T40A4 001:094 JLINK_IsHalted()  returns FALSE (0000ms, 0641ms total)
T40A4 001:096 JLINK_IsHalted()  returns FALSE (0000ms, 0641ms total)
T40A4 001:099 JLINK_IsHalted()  returns FALSE (0000ms, 0641ms total)
T40A4 001:101 JLINK_IsHalted()  returns FALSE (0000ms, 0641ms total)
T40A4 001:103 JLINK_IsHalted()  returns FALSE (0000ms, 0641ms total)
T40A4 001:107 JLINK_IsHalted()  returns FALSE (0000ms, 0641ms total)
T40A4 001:109 JLINK_IsHalted()  returns FALSE (0000ms, 0641ms total)
T40A4 001:111 JLINK_IsHalted()  returns FALSE (0000ms, 0641ms total)
T40A4 001:113 JLINK_IsHalted()  returns FALSE (0000ms, 0641ms total)
T40A4 001:115 JLINK_IsHalted()  returns FALSE (0000ms, 0641ms total)
T40A4 001:117 JLINK_IsHalted()  returns FALSE (0000ms, 0641ms total)
T40A4 001:119 JLINK_IsHalted()  returns FALSE (0000ms, 0641ms total)
T40A4 001:121 JLINK_IsHalted()  returns FALSE (0000ms, 0641ms total)
T40A4 001:123 JLINK_IsHalted()  returns FALSE (0000ms, 0641ms total)
T40A4 001:129 JLINK_IsHalted()  returns FALSE (0000ms, 0641ms total)
T40A4 001:131 JLINK_IsHalted()  returns FALSE (0000ms, 0641ms total)
T40A4 001:134 JLINK_IsHalted()  returns FALSE (0000ms, 0641ms total)
T40A4 001:136 JLINK_IsHalted()  returns FALSE (0000ms, 0641ms total)
T40A4 001:138 JLINK_IsHalted()  returns FALSE (0000ms, 0641ms total)
T40A4 001:140 JLINK_IsHalted()  returns FALSE (0000ms, 0641ms total)
T40A4 001:142 JLINK_IsHalted()  returns FALSE (0000ms, 0641ms total)
T40A4 001:144 JLINK_IsHalted()  returns FALSE (0000ms, 0641ms total)
T40A4 001:146 JLINK_IsHalted()  returns FALSE (0000ms, 0641ms total)
T40A4 001:148 JLINK_IsHalted()  returns FALSE (0000ms, 0641ms total)
T40A4 001:150 JLINK_IsHalted()  returns FALSE (0000ms, 0641ms total)
T40A4 001:152 JLINK_IsHalted()  returns FALSE (0000ms, 0641ms total)
T40A4 001:154 JLINK_IsHalted()  returns FALSE (0002ms, 0643ms total)
T40A4 001:158 JLINK_IsHalted()  returns FALSE (0000ms, 0641ms total)
T40A4 001:160 JLINK_IsHalted()  returns FALSE (0001ms, 0642ms total)
T40A4 001:163 JLINK_IsHalted()  returns FALSE (0000ms, 0641ms total)
T40A4 001:165 JLINK_IsHalted()  returns FALSE (0000ms, 0641ms total)
T40A4 001:167 JLINK_IsHalted()  returns FALSE (0000ms, 0641ms total)
T40A4 001:172 JLINK_IsHalted()  returns FALSE (0000ms, 0641ms total)
T40A4 001:174 JLINK_IsHalted()  returns FALSE (0000ms, 0641ms total)
T40A4 001:176 JLINK_IsHalted()  returns FALSE (0000ms, 0641ms total)
T40A4 001:178 JLINK_IsHalted()  returns FALSE (0000ms, 0641ms total)
T40A4 001:180 JLINK_IsHalted()  returns FALSE (0000ms, 0641ms total)
T40A4 001:183 JLINK_IsHalted()  returns FALSE (0000ms, 0641ms total)
T40A4 001:185 JLINK_IsHalted()  returns FALSE (0000ms, 0641ms total)
T40A4 001:187 JLINK_IsHalted()  returns FALSE (0000ms, 0641ms total)
T40A4 001:190 JLINK_IsHalted()  returns FALSE (0000ms, 0641ms total)
T40A4 001:192 JLINK_IsHalted()  returns FALSE (0000ms, 0641ms total)
T40A4 001:195 JLINK_IsHalted() -- CPU_ReadMem(2 bytes @ 0x20000000)  returns TRUE (0003ms, 0644ms total)
T40A4 001:198 JLINK_ReadReg(R15 (PC))  returns 0x20000000 (0000ms, 0641ms total)
T40A4 001:198 JLINK_ClrBPEx(BPHandle = 0x00000003)  returns 0x00 (0000ms, 0641ms total)
T40A4 001:198 JLINK_ReadReg(R0)  returns 0x00000000 (0000ms, 0641ms total)
T40A4 001:199 JLINK_WriteReg(R0, 0x00000001)  returns 0x00 (0000ms, 0641ms total)
T40A4 001:199 JLINK_WriteReg(R1, 0x00004000)  returns 0x00 (0000ms, 0641ms total)
T40A4 001:199 JLINK_WriteReg(R2, 0x000000FF)  returns 0x00 (0000ms, 0641ms total)
T40A4 001:199 JLINK_WriteReg(R3, 0x00000000)  returns 0x00 (0000ms, 0641ms total)
T40A4 001:199 JLINK_WriteReg(R4, 0x00000000)  returns 0x00 (0000ms, 0641ms total)
T40A4 001:199 JLINK_WriteReg(R5, 0x00000000)  returns 0x00 (0000ms, 0641ms total)
T40A4 001:199 JLINK_WriteReg(R6, 0x00000000)  returns 0x00 (0000ms, 0641ms total)
T40A4 001:199 JLINK_WriteReg(R7, 0x00000000)  returns 0x00 (0000ms, 0641ms total)
T40A4 001:199 JLINK_WriteReg(R8, 0x00000000)  returns 0x00 (0000ms, 0641ms total)
T40A4 001:199 JLINK_WriteReg(R9, 0x2000017C)  returns 0x00 (0000ms, 0641ms total)
T40A4 001:199 JLINK_WriteReg(R10, 0x00000000)  returns 0x00 (0000ms, 0641ms total)
T40A4 001:199 JLINK_WriteReg(R11, 0x00000000)  returns 0x00 (0000ms, 0641ms total)
T40A4 001:199 JLINK_WriteReg(R12, 0x00000000)  returns 0x00 (0000ms, 0641ms total)
T40A4 001:199 JLINK_WriteReg(R13 (SP), 0x20001000)  returns 0x00 (0000ms, 0641ms total)
T40A4 001:199 JLINK_WriteReg(R14, 0x20000001)  returns 0x00 (0000ms, 0641ms total)
T40A4 001:199 JLINK_WriteReg(R15 (PC), 0x20000082)  returns 0x00 (0000ms, 0641ms total)
T40A4 001:199 JLINK_WriteReg(XPSR, 0x01000000)  returns 0x00 (0000ms, 0641ms total)
T40A4 001:199 JLINK_WriteReg(MSP, 0x20001000)  returns 0x00 (0000ms, 0641ms total)
T40A4 001:199 JLINK_WriteReg(PSP, 0x20001000)  returns 0x00 (0000ms, 0641ms total)
T40A4 001:199 JLINK_WriteReg(CFBP, 0x00000000)  returns 0x00 (0000ms, 0641ms total)
T40A4 001:199 JLINK_SetBPEx(Addr = 0x20000000, Type = 0xFFFFFFF2)  returns 0x00000004 (0000ms, 0641ms total)
T40A4 001:199 JLINK_Go() (0002ms, 0643ms total)
T40A4 001:201 JLINK_IsHalted() -- CPU_ReadMem(2 bytes @ 0x20000000)  returns TRUE (0004ms, 0647ms total)
T40A4 001:205 JLINK_ReadReg(R15 (PC))  returns 0x20000000 (0000ms, 0643ms total)
T40A4 001:205 JLINK_ClrBPEx(BPHandle = 0x00000004)  returns 0x00 (0000ms, 0643ms total)
T40A4 001:205 JLINK_ReadReg(R0)  returns 0x00000000 (0000ms, 0643ms total)
T40A4 001:263 JLINK_WriteMem(0x20000000, 0x0180 Bytes, ...) - Data: 00 BE 0A E0 0D 78 2D 06 68 40 08 24 40 00 00 D3 ... -- CPU_WriteMem(384 bytes @ 0x20000000)  returns 0x180 (0005ms, 0648ms total)
T40A4 001:268 JLINK_WriteReg(R0, 0x08000000)  returns 0x00 (0000ms, 0648ms total)
T40A4 001:268 JLINK_WriteReg(R1, 0x007A1200)  returns 0x00 (0000ms, 0648ms total)
T40A4 001:268 JLINK_WriteReg(R2, 0x00000002)  returns 0x00 (0000ms, 0648ms total)
T40A4 001:268 JLINK_WriteReg(R3, 0x00000000)  returns 0x00 (0000ms, 0648ms total)
T40A4 001:268 JLINK_WriteReg(R4, 0x00000000)  returns 0x00 (0000ms, 0648ms total)
T40A4 001:268 JLINK_WriteReg(R5, 0x00000000)  returns 0x00 (0000ms, 0648ms total)
T40A4 001:268 JLINK_WriteReg(R6, 0x00000000)  returns 0x00 (0000ms, 0648ms total)
T40A4 001:268 JLINK_WriteReg(R7, 0x00000000)  returns 0x00 (0000ms, 0648ms total)
T40A4 001:268 JLINK_WriteReg(R8, 0x00000000)  returns 0x00 (0001ms, 0649ms total)
T40A4 001:269 JLINK_WriteReg(R9, 0x2000017C)  returns 0x00 (0000ms, 0649ms total)
T40A4 001:269 JLINK_WriteReg(R10, 0x00000000)  returns 0x00 (0000ms, 0649ms total)
T40A4 001:269 JLINK_WriteReg(R11, 0x00000000)  returns 0x00 (0000ms, 0649ms total)
T40A4 001:269 JLINK_WriteReg(R12, 0x00000000)  returns 0x00 (0000ms, 0649ms total)
T40A4 001:269 JLINK_WriteReg(R13 (SP), 0x20001000)  returns 0x00 (0000ms, 0649ms total)
T40A4 001:269 JLINK_WriteReg(R14, 0x20000001)  returns 0x00 (0000ms, 0649ms total)
T40A4 001:269 JLINK_WriteReg(R15 (PC), 0x20000054)  returns 0x00 (0000ms, 0649ms total)
T40A4 001:269 JLINK_WriteReg(XPSR, 0x01000000)  returns 0x00 (0000ms, 0649ms total)
T40A4 001:269 JLINK_WriteReg(MSP, 0x20001000)  returns 0x00 (0000ms, 0649ms total)
T40A4 001:269 JLINK_WriteReg(PSP, 0x20001000)  returns 0x00 (0000ms, 0649ms total)
T40A4 001:269 JLINK_WriteReg(CFBP, 0x00000000)  returns 0x00 (0000ms, 0649ms total)
T40A4 001:269 JLINK_SetBPEx(Addr = 0x20000000, Type = 0xFFFFFFF2) -- CPU_ReadMem(2 bytes @ 0x20000000)  returns 0x00000005 (0000ms, 0649ms total)
T40A4 001:269 JLINK_Go() -- CPU_WriteMem(2 bytes @ 0x20000000) (0003ms, 0652ms total)
T40A4 001:272 JLINK_IsHalted() -- CPU_ReadMem(2 bytes @ 0x20000000)  returns TRUE (0003ms, 0655ms total)
T40A4 001:275 JLINK_ReadReg(R15 (PC))  returns 0x20000000 (0000ms, 0652ms total)
T40A4 001:275 JLINK_ClrBPEx(BPHandle = 0x00000005)  returns 0x00 (0000ms, 0652ms total)
T40A4 001:275 JLINK_ReadReg(R0)  returns 0x00000000 (0000ms, 0652ms total)
T40A4 001:276 JLINK_WriteMem(0x20000180, 0x0400 Bytes, ...) - Data: 18 35 01 20 01 03 00 08 ED 15 00 08 A3 15 00 08 ... -- CPU_WriteMem(1024 bytes @ 0x20000180)  returns 0x400 (0012ms, 0664ms total)
T40A4 001:288 JLINK_WriteReg(R0, 0x08000000)  returns 0x00 (0000ms, 0664ms total)
T40A4 001:288 JLINK_WriteReg(R1, 0x00000400)  returns 0x00 (0000ms, 0664ms total)
T40A4 001:288 JLINK_WriteReg(R2, 0x20000180)  returns 0x00 (0000ms, 0664ms total)
T40A4 001:288 JLINK_WriteReg(R3, 0x00000000)  returns 0x00 (0000ms, 0664ms total)
T40A4 001:288 JLINK_WriteReg(R4, 0x00000000)  returns 0x00 (0000ms, 0664ms total)
T40A4 001:288 JLINK_WriteReg(R5, 0x00000000)  returns 0x00 (0000ms, 0664ms total)
T40A4 001:288 JLINK_WriteReg(R6, 0x00000000)  returns 0x00 (0000ms, 0664ms total)
T40A4 001:288 JLINK_WriteReg(R7, 0x00000000)  returns 0x00 (0000ms, 0664ms total)
T40A4 001:288 JLINK_WriteReg(R8, 0x00000000)  returns 0x00 (0000ms, 0664ms total)
T40A4 001:288 JLINK_WriteReg(R9, 0x2000017C)  returns 0x00 (0000ms, 0664ms total)
T40A4 001:288 JLINK_WriteReg(R10, 0x00000000)  returns 0x00 (0000ms, 0664ms total)
T40A4 001:288 JLINK_WriteReg(R11, 0x00000000)  returns 0x00 (0000ms, 0664ms total)
T40A4 001:288 JLINK_WriteReg(R12, 0x00000000)  returns 0x00 (0000ms, 0664ms total)
T40A4 001:288 JLINK_WriteReg(R13 (SP), 0x20001000)  returns 0x00 (0000ms, 0664ms total)
T40A4 001:288 JLINK_WriteReg(R14, 0x20000001)  returns 0x00 (0000ms, 0664ms total)
T40A4 001:288 JLINK_WriteReg(R15 (PC), 0x20000108)  returns 0x00 (0000ms, 0664ms total)
T40A4 001:288 JLINK_WriteReg(XPSR, 0x01000000)  returns 0x00 (0000ms, 0664ms total)
T40A4 001:288 JLINK_WriteReg(MSP, 0x20001000)  returns 0x00 (0000ms, 0664ms total)
T40A4 001:288 JLINK_WriteReg(PSP, 0x20001000)  returns 0x00 (0000ms, 0664ms total)
T40A4 001:288 JLINK_WriteReg(CFBP, 0x00000000)  returns 0x00 (0000ms, 0664ms total)
T40A4 001:288 JLINK_SetBPEx(Addr = 0x20000000, Type = 0xFFFFFFF2)  returns 0x00000006 (0000ms, 0664ms total)
T40A4 001:288 JLINK_Go() (0002ms, 0666ms total)
T40A4 001:290 JLINK_IsHalted()  returns FALSE (0000ms, 0666ms total)
T40A4 001:305 JLINK_IsHalted() -- CPU_ReadMem(2 bytes @ 0x20000000)  returns TRUE (0003ms, 0669ms total)
T40A4 001:308 JLINK_ReadReg(R15 (PC))  returns 0x20000000 (0000ms, 0666ms total)
T40A4 001:308 JLINK_ClrBPEx(BPHandle = 0x00000006)  returns 0x00 (0000ms, 0666ms total)
T40A4 001:308 JLINK_ReadReg(R0)  returns 0x00000000 (0000ms, 0666ms total)
T40A4 001:309 JLINK_WriteMem(0x20000180, 0x0400 Bytes, ...) - Data: 20 46 E1 68 88 47 7F 1C 06 46 02 2F 45 F0 20 05 ... -- CPU_WriteMem(1024 bytes @ 0x20000180)  returns 0x400 (0011ms, 0677ms total)
T40A4 001:320 JLINK_WriteReg(R0, 0x08000400)  returns 0x00 (0000ms, 0677ms total)
T40A4 001:320 JLINK_WriteReg(R1, 0x00000400)  returns 0x00 (0000ms, 0677ms total)
T40A4 001:320 JLINK_WriteReg(R2, 0x20000180)  returns 0x00 (0000ms, 0677ms total)
T40A4 001:320 JLINK_WriteReg(R3, 0x00000000)  returns 0x00 (0000ms, 0677ms total)
T40A4 001:320 JLINK_WriteReg(R4, 0x00000000)  returns 0x00 (0000ms, 0677ms total)
T40A4 001:320 JLINK_WriteReg(R5, 0x00000000)  returns 0x00 (0000ms, 0677ms total)
T40A4 001:320 JLINK_WriteReg(R6, 0x00000000)  returns 0x00 (0000ms, 0677ms total)
T40A4 001:320 JLINK_WriteReg(R7, 0x00000000)  returns 0x00 (0000ms, 0677ms total)
T40A4 001:320 JLINK_WriteReg(R8, 0x00000000)  returns 0x00 (0000ms, 0677ms total)
T40A4 001:320 JLINK_WriteReg(R9, 0x2000017C)  returns 0x00 (0000ms, 0677ms total)
T40A4 001:320 JLINK_WriteReg(R10, 0x00000000)  returns 0x00 (0000ms, 0677ms total)
T40A4 001:320 JLINK_WriteReg(R11, 0x00000000)  returns 0x00 (0000ms, 0677ms total)
T40A4 001:320 JLINK_WriteReg(R12, 0x00000000)  returns 0x00 (0000ms, 0677ms total)
T40A4 001:320 JLINK_WriteReg(R13 (SP), 0x20001000)  returns 0x00 (0000ms, 0677ms total)
T40A4 001:321 JLINK_WriteReg(R14, 0x20000001)  returns 0x00 (0000ms, 0677ms total)
T40A4 001:321 JLINK_WriteReg(R15 (PC), 0x20000108)  returns 0x00 (0000ms, 0677ms total)
T40A4 001:321 JLINK_WriteReg(XPSR, 0x01000000)  returns 0x00 (0000ms, 0677ms total)
T40A4 001:321 JLINK_WriteReg(MSP, 0x20001000)  returns 0x00 (0000ms, 0677ms total)
T40A4 001:321 JLINK_WriteReg(PSP, 0x20001000)  returns 0x00 (0000ms, 0677ms total)
T40A4 001:321 JLINK_WriteReg(CFBP, 0x00000000)  returns 0x00 (0000ms, 0677ms total)
T40A4 001:321 JLINK_SetBPEx(Addr = 0x20000000, Type = 0xFFFFFFF2)  returns 0x00000007 (0000ms, 0677ms total)
T40A4 001:321 JLINK_Go() (0001ms, 0678ms total)
T40A4 001:322 JLINK_IsHalted()  returns FALSE (0001ms, 0679ms total)
T40A4 001:328 JLINK_IsHalted() -- CPU_ReadMem(2 bytes @ 0x20000000)  returns TRUE (0003ms, 0681ms total)
T40A4 001:331 JLINK_ReadReg(R15 (PC))  returns 0x20000000 (0000ms, 0678ms total)
T40A4 001:331 JLINK_ClrBPEx(BPHandle = 0x00000007)  returns 0x00 (0000ms, 0678ms total)
T40A4 001:331 JLINK_ReadReg(R0)  returns 0x00000000 (0000ms, 0678ms total)
T40A4 001:332 JLINK_WriteMem(0x20000180, 0x0400 Bytes, ...) - Data: B8 1B 00 F1 01 0A 4F F0 00 47 20 78 00 07 03 D4 ... -- CPU_WriteMem(1024 bytes @ 0x20000180)  returns 0x400 (0012ms, 0690ms total)
T40A4 001:344 JLINK_WriteReg(R0, 0x08000800)  returns 0x00 (0000ms, 0690ms total)
T40A4 001:344 JLINK_WriteReg(R1, 0x00000400)  returns 0x00 (0000ms, 0690ms total)
T40A4 001:344 JLINK_WriteReg(R2, 0x20000180)  returns 0x00 (0000ms, 0690ms total)
T40A4 001:344 JLINK_WriteReg(R3, 0x00000000)  returns 0x00 (0000ms, 0690ms total)
T40A4 001:344 JLINK_WriteReg(R4, 0x00000000)  returns 0x00 (0000ms, 0690ms total)
T40A4 001:344 JLINK_WriteReg(R5, 0x00000000)  returns 0x00 (0000ms, 0690ms total)
T40A4 001:344 JLINK_WriteReg(R6, 0x00000000)  returns 0x00 (0001ms, 0691ms total)
T40A4 001:345 JLINK_WriteReg(R7, 0x00000000)  returns 0x00 (0000ms, 0691ms total)
T40A4 001:345 JLINK_WriteReg(R8, 0x00000000)  returns 0x00 (0000ms, 0691ms total)
T40A4 001:345 JLINK_WriteReg(R9, 0x2000017C)  returns 0x00 (0000ms, 0691ms total)
T40A4 001:345 JLINK_WriteReg(R10, 0x00000000)  returns 0x00 (0000ms, 0691ms total)
T40A4 001:345 JLINK_WriteReg(R11, 0x00000000)  returns 0x00 (0000ms, 0691ms total)
T40A4 001:345 JLINK_WriteReg(R12, 0x00000000)  returns 0x00 (0000ms, 0691ms total)
T40A4 001:345 JLINK_WriteReg(R13 (SP), 0x20001000)  returns 0x00 (0000ms, 0691ms total)
T40A4 001:345 JLINK_WriteReg(R14, 0x20000001)  returns 0x00 (0000ms, 0691ms total)
T40A4 001:345 JLINK_WriteReg(R15 (PC), 0x20000108)  returns 0x00 (0000ms, 0691ms total)
T40A4 001:345 JLINK_WriteReg(XPSR, 0x01000000)  returns 0x00 (0000ms, 0691ms total)
T40A4 001:345 JLINK_WriteReg(MSP, 0x20001000)  returns 0x00 (0000ms, 0691ms total)
T40A4 001:345 JLINK_WriteReg(PSP, 0x20001000)  returns 0x00 (0000ms, 0691ms total)
T40A4 001:345 JLINK_WriteReg(CFBP, 0x00000000)  returns 0x00 (0000ms, 0691ms total)
T40A4 001:345 JLINK_SetBPEx(Addr = 0x20000000, Type = 0xFFFFFFF2)  returns 0x00000008 (0000ms, 0691ms total)
T40A4 001:345 JLINK_Go() (0002ms, 0693ms total)
T40A4 001:347 JLINK_IsHalted()  returns FALSE (0000ms, 0693ms total)
T40A4 001:352 JLINK_IsHalted() -- CPU_ReadMem(2 bytes @ 0x20000000)  returns TRUE (0003ms, 0696ms total)
T40A4 001:355 JLINK_ReadReg(R15 (PC))  returns 0x20000000 (0000ms, 0693ms total)
T40A4 001:355 JLINK_ClrBPEx(BPHandle = 0x00000008)  returns 0x00 (0000ms, 0693ms total)
T40A4 001:355 JLINK_ReadReg(R0)  returns 0x00000000 (0000ms, 0693ms total)
T40A4 001:356 JLINK_WriteMem(0x20000180, 0x0400 Bytes, ...) - Data: 2A FB C9 E9 00 01 C9 F8 08 20 0A B0 BD E8 F0 87 ... -- CPU_WriteMem(1024 bytes @ 0x20000180)  returns 0x400 (0012ms, 0705ms total)
T40A4 001:368 JLINK_WriteReg(R0, 0x08000C00)  returns 0x00 (0000ms, 0705ms total)
T40A4 001:368 JLINK_WriteReg(R1, 0x00000400)  returns 0x00 (0000ms, 0705ms total)
T40A4 001:368 JLINK_WriteReg(R2, 0x20000180)  returns 0x00 (0000ms, 0705ms total)
T40A4 001:368 JLINK_WriteReg(R3, 0x00000000)  returns 0x00 (0001ms, 0706ms total)
T40A4 001:369 JLINK_WriteReg(R4, 0x00000000)  returns 0x00 (0000ms, 0706ms total)
T40A4 001:369 JLINK_WriteReg(R5, 0x00000000)  returns 0x00 (0000ms, 0706ms total)
T40A4 001:369 JLINK_WriteReg(R6, 0x00000000)  returns 0x00 (0000ms, 0706ms total)
T40A4 001:369 JLINK_WriteReg(R7, 0x00000000)  returns 0x00 (0000ms, 0706ms total)
T40A4 001:369 JLINK_WriteReg(R8, 0x00000000)  returns 0x00 (0000ms, 0706ms total)
T40A4 001:369 JLINK_WriteReg(R9, 0x2000017C)  returns 0x00 (0000ms, 0706ms total)
T40A4 001:369 JLINK_WriteReg(R10, 0x00000000)  returns 0x00 (0000ms, 0706ms total)
T40A4 001:369 JLINK_WriteReg(R11, 0x00000000)  returns 0x00 (0000ms, 0706ms total)
T40A4 001:369 JLINK_WriteReg(R12, 0x00000000)  returns 0x00 (0000ms, 0706ms total)
T40A4 001:369 JLINK_WriteReg(R13 (SP), 0x20001000)  returns 0x00 (0000ms, 0706ms total)
T40A4 001:369 JLINK_WriteReg(R14, 0x20000001)  returns 0x00 (0000ms, 0706ms total)
T40A4 001:369 JLINK_WriteReg(R15 (PC), 0x20000108)  returns 0x00 (0000ms, 0706ms total)
T40A4 001:369 JLINK_WriteReg(XPSR, 0x01000000)  returns 0x00 (0000ms, 0706ms total)
T40A4 001:369 JLINK_WriteReg(MSP, 0x20001000)  returns 0x00 (0000ms, 0706ms total)
T40A4 001:369 JLINK_WriteReg(PSP, 0x20001000)  returns 0x00 (0000ms, 0706ms total)
T40A4 001:369 JLINK_WriteReg(CFBP, 0x00000000)  returns 0x00 (0000ms, 0706ms total)
T40A4 001:369 JLINK_SetBPEx(Addr = 0x20000000, Type = 0xFFFFFFF2)  returns 0x00000009 (0000ms, 0706ms total)
T40A4 001:369 JLINK_Go() (0002ms, 0708ms total)
T40A4 001:371 JLINK_IsHalted()  returns FALSE (0000ms, 0708ms total)
T40A4 001:374 JLINK_IsHalted()  returns FALSE (0000ms, 0708ms total)
T40A4 001:376 JLINK_IsHalted() -- CPU_ReadMem(2 bytes @ 0x20000000)  returns TRUE (0003ms, 0711ms total)
T40A4 001:379 JLINK_ReadReg(R15 (PC))  returns 0x20000000 (0000ms, 0708ms total)
T40A4 001:379 JLINK_ClrBPEx(BPHandle = 0x00000009)  returns 0x00 (0000ms, 0708ms total)
T40A4 001:379 JLINK_ReadReg(R0)  returns 0x00000000 (0000ms, 0708ms total)
T40A4 001:380 JLINK_WriteMem(0x20000180, 0x0400 Bytes, ...) - Data: 0C FB 0B F7 D2 1B 03 FB 0C F7 61 EB 07 01 0C FB ... -- CPU_WriteMem(1024 bytes @ 0x20000180)  returns 0x400 (0012ms, 0720ms total)
T40A4 001:392 JLINK_WriteReg(R0, 0x08001000)  returns 0x00 (0000ms, 0720ms total)
T40A4 001:392 JLINK_WriteReg(R1, 0x00000400)  returns 0x00 (0000ms, 0720ms total)
T40A4 001:392 JLINK_WriteReg(R2, 0x20000180)  returns 0x00 (0000ms, 0720ms total)
T40A4 001:392 JLINK_WriteReg(R3, 0x00000000)  returns 0x00 (0000ms, 0720ms total)
T40A4 001:392 JLINK_WriteReg(R4, 0x00000000)  returns 0x00 (0000ms, 0720ms total)
T40A4 001:392 JLINK_WriteReg(R5, 0x00000000)  returns 0x00 (0000ms, 0720ms total)
T40A4 001:392 JLINK_WriteReg(R6, 0x00000000)  returns 0x00 (0000ms, 0720ms total)
T40A4 001:392 JLINK_WriteReg(R7, 0x00000000)  returns 0x00 (0000ms, 0720ms total)
T40A4 001:392 JLINK_WriteReg(R8, 0x00000000)  returns 0x00 (0000ms, 0720ms total)
T40A4 001:392 JLINK_WriteReg(R9, 0x2000017C)  returns 0x00 (0000ms, 0720ms total)
T40A4 001:392 JLINK_WriteReg(R10, 0x00000000)  returns 0x00 (0000ms, 0720ms total)
T40A4 001:392 JLINK_WriteReg(R11, 0x00000000)  returns 0x00 (0000ms, 0720ms total)
T40A4 001:392 JLINK_WriteReg(R12, 0x00000000)  returns 0x00 (0000ms, 0720ms total)
T40A4 001:392 JLINK_WriteReg(R13 (SP), 0x20001000)  returns 0x00 (0000ms, 0720ms total)
T40A4 001:392 JLINK_WriteReg(R14, 0x20000001)  returns 0x00 (0000ms, 0720ms total)
T40A4 001:392 JLINK_WriteReg(R15 (PC), 0x20000108)  returns 0x00 (0000ms, 0720ms total)
T40A4 001:392 JLINK_WriteReg(XPSR, 0x01000000)  returns 0x00 (0000ms, 0720ms total)
T40A4 001:392 JLINK_WriteReg(MSP, 0x20001000)  returns 0x00 (0000ms, 0720ms total)
T40A4 001:392 JLINK_WriteReg(PSP, 0x20001000)  returns 0x00 (0000ms, 0720ms total)
T40A4 001:392 JLINK_WriteReg(CFBP, 0x00000000)  returns 0x00 (0000ms, 0720ms total)
T40A4 001:392 JLINK_SetBPEx(Addr = 0x20000000, Type = 0xFFFFFFF2)  returns 0x0000000A (0001ms, 0721ms total)
T40A4 001:393 JLINK_Go() (0001ms, 0722ms total)
T40A4 001:394 JLINK_IsHalted()  returns FALSE (0001ms, 0723ms total)
T40A4 001:402 JLINK_IsHalted() -- CPU_ReadMem(2 bytes @ 0x20000000)  returns TRUE (0003ms, 0725ms total)
T40A4 001:405 JLINK_ReadReg(R15 (PC))  returns 0x20000000 (0000ms, 0722ms total)
T40A4 001:405 JLINK_ClrBPEx(BPHandle = 0x0000000A)  returns 0x00 (0000ms, 0722ms total)
T40A4 001:405 JLINK_ReadReg(R0)  returns 0x00000000 (0000ms, 0722ms total)
T40A4 001:406 JLINK_WriteMem(0x20000180, 0x0400 Bytes, ...) - Data: 01 01 A3 F1 01 03 70 47 95 F0 00 0F 37 D0 4F EA ... -- CPU_WriteMem(1024 bytes @ 0x20000180)  returns 0x400 (0012ms, 0734ms total)
T40A4 001:418 JLINK_WriteReg(R0, 0x08001400)  returns 0x00 (0000ms, 0734ms total)
T40A4 001:418 JLINK_WriteReg(R1, 0x00000400)  returns 0x00 (0000ms, 0734ms total)
T40A4 001:418 JLINK_WriteReg(R2, 0x20000180)  returns 0x00 (0000ms, 0734ms total)
T40A4 001:418 JLINK_WriteReg(R3, 0x00000000)  returns 0x00 (0000ms, 0734ms total)
T40A4 001:418 JLINK_WriteReg(R4, 0x00000000)  returns 0x00 (0000ms, 0734ms total)
T40A4 001:418 JLINK_WriteReg(R5, 0x00000000)  returns 0x00 (0001ms, 0735ms total)
T40A4 001:419 JLINK_WriteReg(R6, 0x00000000)  returns 0x00 (0000ms, 0735ms total)
T40A4 001:419 JLINK_WriteReg(R7, 0x00000000)  returns 0x00 (0000ms, 0735ms total)
T40A4 001:419 JLINK_WriteReg(R8, 0x00000000)  returns 0x00 (0000ms, 0735ms total)
T40A4 001:419 JLINK_WriteReg(R9, 0x2000017C)  returns 0x00 (0000ms, 0735ms total)
T40A4 001:419 JLINK_WriteReg(R10, 0x00000000)  returns 0x00 (0000ms, 0735ms total)
T40A4 001:419 JLINK_WriteReg(R11, 0x00000000)  returns 0x00 (0000ms, 0735ms total)
T40A4 001:419 JLINK_WriteReg(R12, 0x00000000)  returns 0x00 (0000ms, 0735ms total)
T40A4 001:419 JLINK_WriteReg(R13 (SP), 0x20001000)  returns 0x00 (0000ms, 0735ms total)
T40A4 001:419 JLINK_WriteReg(R14, 0x20000001)  returns 0x00 (0000ms, 0735ms total)
T40A4 001:419 JLINK_WriteReg(R15 (PC), 0x20000108)  returns 0x00 (0000ms, 0735ms total)
T40A4 001:419 JLINK_WriteReg(XPSR, 0x01000000)  returns 0x00 (0000ms, 0735ms total)
T40A4 001:419 JLINK_WriteReg(MSP, 0x20001000)  returns 0x00 (0000ms, 0735ms total)
T40A4 001:419 JLINK_WriteReg(PSP, 0x20001000)  returns 0x00 (0000ms, 0735ms total)
T40A4 001:419 JLINK_WriteReg(CFBP, 0x00000000)  returns 0x00 (0000ms, 0735ms total)
T40A4 001:419 JLINK_SetBPEx(Addr = 0x20000000, Type = 0xFFFFFFF2)  returns 0x0000000B (0000ms, 0735ms total)
T40A4 001:419 JLINK_Go() (0002ms, 0737ms total)
T40A4 001:421 JLINK_IsHalted()  returns FALSE (0000ms, 0737ms total)
T40A4 001:424 JLINK_IsHalted()  returns FALSE (0000ms, 0737ms total)
T40A4 001:426 JLINK_IsHalted() -- CPU_ReadMem(2 bytes @ 0x20000000)  returns TRUE (0003ms, 0740ms total)
T40A4 001:429 JLINK_ReadReg(R15 (PC))  returns 0x20000000 (0000ms, 0737ms total)
T40A4 001:429 JLINK_ClrBPEx(BPHandle = 0x0000000B)  returns 0x00 (0000ms, 0737ms total)
T40A4 001:429 JLINK_ReadReg(R0)  returns 0x00000000 (0000ms, 0737ms total)
T40A4 001:430 JLINK_WriteMem(0x20000180, 0x0400 Bytes, ...) - Data: 20 48 00 68 40 F4 40 40 1E 49 08 60 1C 48 08 30 ... -- CPU_WriteMem(1024 bytes @ 0x20000180)  returns 0x400 (0012ms, 0749ms total)
T40A4 001:442 JLINK_WriteReg(R0, 0x08001800)  returns 0x00 (0000ms, 0749ms total)
T40A4 001:442 JLINK_WriteReg(R1, 0x00000400)  returns 0x00 (0000ms, 0749ms total)
T40A4 001:442 JLINK_WriteReg(R2, 0x20000180)  returns 0x00 (0000ms, 0749ms total)
T40A4 001:442 JLINK_WriteReg(R3, 0x00000000)  returns 0x00 (0000ms, 0749ms total)
T40A4 001:442 JLINK_WriteReg(R4, 0x00000000)  returns 0x00 (0000ms, 0749ms total)
T40A4 001:442 JLINK_WriteReg(R5, 0x00000000)  returns 0x00 (0000ms, 0749ms total)
T40A4 001:442 JLINK_WriteReg(R6, 0x00000000)  returns 0x00 (0000ms, 0749ms total)
T40A4 001:442 JLINK_WriteReg(R7, 0x00000000)  returns 0x00 (0000ms, 0749ms total)
T40A4 001:442 JLINK_WriteReg(R8, 0x00000000)  returns 0x00 (0000ms, 0749ms total)
T40A4 001:442 JLINK_WriteReg(R9, 0x2000017C)  returns 0x00 (0000ms, 0749ms total)
T40A4 001:442 JLINK_WriteReg(R10, 0x00000000)  returns 0x00 (0000ms, 0749ms total)
T40A4 001:442 JLINK_WriteReg(R11, 0x00000000)  returns 0x00 (0000ms, 0749ms total)
T40A4 001:442 JLINK_WriteReg(R12, 0x00000000)  returns 0x00 (0000ms, 0749ms total)
T40A4 001:442 JLINK_WriteReg(R13 (SP), 0x20001000)  returns 0x00 (0000ms, 0749ms total)
T40A4 001:442 JLINK_WriteReg(R14, 0x20000001)  returns 0x00 (0000ms, 0749ms total)
T40A4 001:442 JLINK_WriteReg(R15 (PC), 0x20000108)  returns 0x00 (0000ms, 0749ms total)
T40A4 001:442 JLINK_WriteReg(XPSR, 0x01000000)  returns 0x00 (0000ms, 0749ms total)
T40A4 001:442 JLINK_WriteReg(MSP, 0x20001000)  returns 0x00 (0001ms, 0750ms total)
T40A4 001:443 JLINK_WriteReg(PSP, 0x20001000)  returns 0x00 (0000ms, 0750ms total)
T40A4 001:443 JLINK_WriteReg(CFBP, 0x00000000)  returns 0x00 (0000ms, 0750ms total)
T40A4 001:443 JLINK_SetBPEx(Addr = 0x20000000, Type = 0xFFFFFFF2)  returns 0x0000000C (0000ms, 0750ms total)
T40A4 001:443 JLINK_Go() (0001ms, 0751ms total)
T40A4 001:444 JLINK_IsHalted()  returns FALSE (0001ms, 0752ms total)
T40A4 001:448 JLINK_IsHalted()  returns FALSE (0000ms, 0751ms total)
T40A4 001:454 JLINK_IsHalted() -- CPU_ReadMem(2 bytes @ 0x20000000)  returns TRUE (0003ms, 0754ms total)
T40A4 001:457 JLINK_ReadReg(R15 (PC))  returns 0x20000000 (0000ms, 0751ms total)
T40A4 001:457 JLINK_ClrBPEx(BPHandle = 0x0000000C)  returns 0x00 (0000ms, 0751ms total)
T40A4 001:457 JLINK_ReadReg(R0)  returns 0x00000000 (0000ms, 0751ms total)
T40A4 001:458 JLINK_WriteMem(0x20000180, 0x0400 Bytes, ...) - Data: FE F7 A0 FB 4F F4 7A 70 01 F0 18 F8 E7 E7 00 00 ... -- CPU_WriteMem(1024 bytes @ 0x20000180)  returns 0x400 (0012ms, 0763ms total)
T40A4 001:470 JLINK_WriteReg(R0, 0x08001C00)  returns 0x00 (0000ms, 0763ms total)
T40A4 001:470 JLINK_WriteReg(R1, 0x00000400)  returns 0x00 (0000ms, 0763ms total)
T40A4 001:470 JLINK_WriteReg(R2, 0x20000180)  returns 0x00 (0000ms, 0763ms total)
T40A4 001:470 JLINK_WriteReg(R3, 0x00000000)  returns 0x00 (0000ms, 0763ms total)
T40A4 001:470 JLINK_WriteReg(R4, 0x00000000)  returns 0x00 (0000ms, 0763ms total)
T40A4 001:470 JLINK_WriteReg(R5, 0x00000000)  returns 0x00 (0000ms, 0763ms total)
T40A4 001:470 JLINK_WriteReg(R6, 0x00000000)  returns 0x00 (0000ms, 0763ms total)
T40A4 001:470 JLINK_WriteReg(R7, 0x00000000)  returns 0x00 (0000ms, 0763ms total)
T40A4 001:470 JLINK_WriteReg(R8, 0x00000000)  returns 0x00 (0000ms, 0763ms total)
T40A4 001:470 JLINK_WriteReg(R9, 0x2000017C)  returns 0x00 (0000ms, 0763ms total)
T40A4 001:470 JLINK_WriteReg(R10, 0x00000000)  returns 0x00 (0000ms, 0763ms total)
T40A4 001:470 JLINK_WriteReg(R11, 0x00000000)  returns 0x00 (0000ms, 0763ms total)
T40A4 001:470 JLINK_WriteReg(R12, 0x00000000)  returns 0x00 (0000ms, 0763ms total)
T40A4 001:470 JLINK_WriteReg(R13 (SP), 0x20001000)  returns 0x00 (0000ms, 0763ms total)
T40A4 001:470 JLINK_WriteReg(R14, 0x20000001)  returns 0x00 (0000ms, 0763ms total)
T40A4 001:470 JLINK_WriteReg(R15 (PC), 0x20000108)  returns 0x00 (0000ms, 0763ms total)
T40A4 001:470 JLINK_WriteReg(XPSR, 0x01000000)  returns 0x00 (0000ms, 0763ms total)
T40A4 001:470 JLINK_WriteReg(MSP, 0x20001000)  returns 0x00 (0000ms, 0763ms total)
T40A4 001:470 JLINK_WriteReg(PSP, 0x20001000)  returns 0x00 (0000ms, 0763ms total)
T40A4 001:470 JLINK_WriteReg(CFBP, 0x00000000)  returns 0x00 (0000ms, 0763ms total)
T40A4 001:470 JLINK_SetBPEx(Addr = 0x20000000, Type = 0xFFFFFFF2)  returns 0x0000000D (0000ms, 0763ms total)
T40A4 001:470 JLINK_Go() (0002ms, 0765ms total)
T40A4 001:472 JLINK_IsHalted()  returns FALSE (0001ms, 0766ms total)
T40A4 001:475 JLINK_IsHalted()  returns FALSE (0000ms, 0765ms total)
T40A4 001:477 JLINK_IsHalted() -- CPU_ReadMem(2 bytes @ 0x20000000)  returns TRUE (0003ms, 0768ms total)
T40A4 001:480 JLINK_ReadReg(R15 (PC))  returns 0x20000000 (0000ms, 0765ms total)
T40A4 001:480 JLINK_ClrBPEx(BPHandle = 0x0000000D)  returns 0x00 (0000ms, 0765ms total)
T40A4 001:480 JLINK_ReadReg(R0)  returns 0x00000000 (0000ms, 0765ms total)
T40A4 001:481 JLINK_WriteMem(0x20000180, 0x0400 Bytes, ...) - Data: 11 46 44 1A 4C 60 09 4C 24 68 0C 60 08 4D 4C 68 ... -- CPU_WriteMem(1024 bytes @ 0x20000180)  returns 0x400 (0012ms, 0777ms total)
T40A4 001:493 JLINK_WriteReg(R0, 0x08002000)  returns 0x00 (0000ms, 0777ms total)
T40A4 001:493 JLINK_WriteReg(R1, 0x00000400)  returns 0x00 (0000ms, 0777ms total)
T40A4 001:493 JLINK_WriteReg(R2, 0x20000180)  returns 0x00 (0000ms, 0777ms total)
T40A4 001:493 JLINK_WriteReg(R3, 0x00000000)  returns 0x00 (0000ms, 0777ms total)
T40A4 001:493 JLINK_WriteReg(R4, 0x00000000)  returns 0x00 (0000ms, 0777ms total)
T40A4 001:493 JLINK_WriteReg(R5, 0x00000000)  returns 0x00 (0000ms, 0777ms total)
T40A4 001:493 JLINK_WriteReg(R6, 0x00000000)  returns 0x00 (0000ms, 0777ms total)
T40A4 001:493 JLINK_WriteReg(R7, 0x00000000)  returns 0x00 (0000ms, 0777ms total)
T40A4 001:493 JLINK_WriteReg(R8, 0x00000000)  returns 0x00 (0000ms, 0777ms total)
T40A4 001:493 JLINK_WriteReg(R9, 0x2000017C)  returns 0x00 (0000ms, 0777ms total)
T40A4 001:493 JLINK_WriteReg(R10, 0x00000000)  returns 0x00 (0000ms, 0777ms total)
T40A4 001:493 JLINK_WriteReg(R11, 0x00000000)  returns 0x00 (0000ms, 0777ms total)
T40A4 001:493 JLINK_WriteReg(R12, 0x00000000)  returns 0x00 (0000ms, 0777ms total)
T40A4 001:493 JLINK_WriteReg(R13 (SP), 0x20001000)  returns 0x00 (0000ms, 0777ms total)
T40A4 001:493 JLINK_WriteReg(R14, 0x20000001)  returns 0x00 (0000ms, 0777ms total)
T40A4 001:493 JLINK_WriteReg(R15 (PC), 0x20000108)  returns 0x00 (0000ms, 0777ms total)
T40A4 001:493 JLINK_WriteReg(XPSR, 0x01000000)  returns 0x00 (0000ms, 0777ms total)
T40A4 001:493 JLINK_WriteReg(MSP, 0x20001000)  returns 0x00 (0001ms, 0778ms total)
T40A4 001:494 JLINK_WriteReg(PSP, 0x20001000)  returns 0x00 (0000ms, 0778ms total)
T40A4 001:494 JLINK_WriteReg(CFBP, 0x00000000)  returns 0x00 (0000ms, 0778ms total)
T40A4 001:494 JLINK_SetBPEx(Addr = 0x20000000, Type = 0xFFFFFFF2)  returns 0x0000000E (0000ms, 0778ms total)
T40A4 001:494 JLINK_Go() (0001ms, 0779ms total)
T40A4 001:495 JLINK_IsHalted()  returns FALSE (0001ms, 0780ms total)
T40A4 001:498 JLINK_IsHalted()  returns FALSE (0000ms, 0779ms total)
T40A4 001:501 JLINK_IsHalted() -- CPU_ReadMem(2 bytes @ 0x20000000)  returns TRUE (0003ms, 0782ms total)
T40A4 001:504 JLINK_ReadReg(R15 (PC))  returns 0x20000000 (0000ms, 0779ms total)
T40A4 001:504 JLINK_ClrBPEx(BPHandle = 0x0000000E)  returns 0x00 (0000ms, 0779ms total)
T40A4 001:504 JLINK_ReadReg(R0)  returns 0x00000000 (0000ms, 0779ms total)
